! Converted Bode file - 2021-05-17 15:47:11
! BodeAnalyzerSuite Version: 3.24.2014
[Version] 2.0
# MHz S DB R 50
[Number of Ports]  2
[Two-Port Data Order] 21_12
[Number Of Frequencies] 51
[Network Data]
!freq           dBS11                  angS11                 dBS21                  angS21                 dBS12                  angS12                 dBS22                  angS22                 
0.10             -0.001164              -0.067102              -62.609413             79.700922              -62.609413             79.700922              -0.001164              -0.067102             
1.098            -0.020604              -0.735221              -45.024599             107.448065             -45.024599             107.448065             -0.020604              -0.735221             
2.096            -0.027405              -1.267873              -39.290454             87.203485              -39.290454             87.203485              -0.027405              -1.267873             
3.094            -0.140386              -2.098618              -33.270093             125.190752             -33.270093             125.190752             -0.140386              -2.098618             
4.092            -0.106254              -2.573103              -32.83985              98.343481              -32.83985              98.343481              -0.106254              -2.573103             
5.09             -0.505535              -3.163332              -24.076088             127.961786             -24.076088             127.961786             -0.505535              -3.163332             
6.088            -0.275184              -3.589258              -26.456498             100.15275              -26.456498             100.15275              -0.275184              -3.589258             
7.086            -0.669268              -4.406035              -21.799702             119.118506             -21.799702             119.118506             -0.669268              -4.406035             
8.084            -0.524141              -4.085808              -20.900952             96.833555              -20.900952             96.833555              -0.524141              -4.085808             
9.082            -0.703882              -4.689831              -18.967601             97.504307              -18.967601             97.504307              -0.703882              -4.689831             
10.08            -0.785906              -6.583491              -18.510305             96.801454              -18.510305             96.801454              -0.785906              -6.583491             
11.078           -1.199438              -8.299172              -16.427512             103.580782             -16.427512             103.580782             -1.199438              -8.299172             
12.076           -1.540615              -7.546176              -13.45751              96.3213                -13.45751              96.3213                -1.540615              -7.546176             
13.074           -1.624278              -8.626599              -12.084631             87.093779              -12.084631             87.093779              -1.624278              -8.626599             
14.072           -1.74223               -10.982183             -10.939251             78.747744              -10.939251             78.747744              -1.74223               -10.982183             
15.07            -2.177739              -13.962106             -9.5235                73.073347              -9.5235                73.073347              -2.177739              -13.962106             
16.068           -2.6863                -18.421983             -8.314705              64.832034              -8.314705              64.832034              -2.6863                -18.421983             
17.066           -3.560464              -23.98604              -7.019808              55.676145              -7.019808              55.676145              -3.560464              -23.98604             
18.064           -5.013735              -31.057041             -5.814344              44.760006              -5.814344              44.760006              -5.013735              -31.057041             
19.062           -7.715143              -40.075356             -4.854584              32.227497              -4.854584              32.227497              -7.715143              -40.075356             
20.06            -12.73492              -46.972646             -4.120103              17.110207              -4.120103              17.110207              -12.73492              -46.972646             
21.058           -27.808046             -12.405821             -4.005382              1.759765               -4.005382              1.759765               -27.808046             -12.405821             
22.056           -14.730267             90.140814              -4.306334              -13.310992             -4.306334              -13.310992             -14.730267             90.140814             
23.054           -9.277589              85.345934              -4.950164              -26.817626             -4.950164              -26.817626             -9.277589              85.345934             
24.052           -6.779096              78.913889              -5.689872              -39.760614             -5.689872              -39.760614             -6.779096              78.913889             
25.05            -5.199943              74.147193              -6.692192              -51.801385             -6.692192              -51.801385             -5.199943              74.147193             
26.048           -4.321313              71.400057              -7.834739              -65.011024             -7.834739              -65.011024             -4.321313              71.400057             
27.046           -3.473031              69.798678              -9.463124              -75.262749             -9.463124              -75.262749             -3.473031              69.798678             
28.044           -2.724903              67.551769              -11.415666             -83.564245             -11.415666             -83.564245             -2.724903              67.551769             
29.042           -2.199878              65.573194              -13.30839              -92.345278             -13.30839              -92.345278             -2.199878              65.573194             
30.04            -1.743511              63.397449              -15.707013             -98.084995             -15.707013             -98.084995             -1.743511              63.397449             
31.038           -1.416502              60.982129              -17.951641             -99.626644             -17.951641             -99.626644             -1.416502              60.982129             
32.036           -1.179981              59.003992              -20.595447             -100.499685            -20.595447             -100.499685            -1.179981              59.003992             
33.034           -1.028733              57.183015              -22.416582             -99.886934             -22.416582             -99.886934             -1.028733              57.183015             
34.032           -0.95345               55.501193              -24.462432             -99.365751             -24.462432             -99.365751             -0.95345               55.501193             
35.03            -0.894195              54.094854              -27.170147             -98.121795             -27.170147             -98.121795             -0.894195              54.094854             
36.028           -0.89266               52.794845              -30.196517             -93.50017              -30.196517             -93.50017              -0.89266               52.794845             
37.026           -0.941224              51.742149              -33.020607             -87.49014              -33.020607             -87.49014              -0.941224              51.742149             
38.024           -0.954951              51.024783              -36.454126             -83.949709             -36.454126             -83.949709             -0.954951              51.024783             
39.022           -0.949315              50.049309              -50.162727             -124.426693            -50.162727             -124.426693            -0.949315              50.049309
40.02            -0.998295              48.762635              -40.739355             85.247825              -40.739355             85.247825              -0.998295              48.762635             
41.018           -1.100233              47.295461              -34.83324              83.545741              -34.83324              83.545741              -1.100233              47.295461             
42.016           -1.296898              45.810264              -30.645815             88.610176              -30.645815             88.610176              -1.296898              45.810264             
43.014           -1.584334              44.781666              -26.915166             85.587417              -26.915166             85.587417              -1.584334              44.781666             
44.012           -1.863657              44.008136              -24.841098             82.563274              -24.841098             82.563274              -1.863657              44.008136             
45.01            -2.224622              43.505477              -22.553254             79.911094              -22.553254             79.911094              -2.224622              43.505477             
46.008           -2.575375              44.158369              -20.729091             71.653664              -20.729091             71.653664              -2.575375              44.158369             
47.006           -2.694477              44.634943              -20.425413             63.589721              -20.425413             63.589721              -2.694477              44.634943             
48.004           -2.899906              43.352656              -20.314436             66.532928              -20.314436             66.532928              -2.899906              43.352656             
49.002           -3.33542               41.961485              -19.144053             73.137651              -19.144053             73.137651              -3.33542               41.961485             
50.00            -3.961208              41.673515              -16.853676             74.288992              -16.853676             74.288992              -3.961208              41.673515             
[End]
